T307C 000:009.606   SEGGER J-Link V7.22b Log File
T307C 000:009.706   DLL Compiled: Jun 17 2021 17:22:49
T307C 000:009.712   Logging started @ 2022-03-24 16:48
T307C 000:009.718 - 9.721ms
T307C 000:009.728 JLINK_SetWarnOutHandler(...)
T307C 000:009.735 - 0.010ms
T307C 000:009.743 JLINK_OpenEx(...)
T307C 000:015.645   Firmware: J-Link OB-SAM3U128-V2-NordicSemi compiled Feb  2 2021 16:47:20
T307C 000:016.467   Firmware: J-Link OB-SAM3U128-V2-NordicSemi compiled Feb  2 2021 16:47:20
T307C 000:021.894   Hardware: V1.00
T307C 000:021.911   S/N: 682218376
T307C 000:021.922   OEM: SEGGER
T307C 000:021.930   Feature(s): RDI, FlashBP, FlashDL, JFlash, GDB
T307C 000:027.606   TELNET listener socket opened on port 19021
T307C 000:027.765   WEBSRV Starting webserver
T307C 000:027.830   WEBSRV Failed to put socket into listener state (port 19080)
T307C 000:027.909   WEBSRV Webserver running on local port 19081
T307C 000:027.921 - 18.181ms returns "O.K."
T307C 000:027.955 JLINK_GetEmuCaps()
T307C 000:027.962 - 0.010ms returns 0xB8EA5A33
T307C 000:027.973 JLINK_TIF_GetAvailable(...)
T307C 000:028.546 - 0.580ms
T307C 000:028.577 JLINK_SetErrorOutHandler(...)
T307C 000:028.584 - 0.010ms
T307C 000:028.601 JLINK_ExecCommand("ProjectFile = "D:\nRF5_SDK_17.0.2_d674dde\examples\Test\bsp\pca10056\blank\arm5_no_packs\JLinkSettings.ini"", ...). 
T307C 000:040.394 - 11.803ms returns 0x00
T307C 000:044.839 JLINK_ExecCommand("Device = nRF52840_xxAA", ...). 
T307C 000:048.340   Device "NRF52840_XXAA" selected.
T307C 000:048.918 - 4.068ms returns 0x00
T307C 000:048.944 JLINK_GetHardwareVersion()
T307C 000:048.950 - 0.008ms returns 10000
T307C 000:048.958 JLINK_GetDLLVersion()
T307C 000:048.964 - 0.008ms returns 72202
T307C 000:048.971 JLINK_GetOEMString(...)
T307C 000:048.979 JLINK_GetFirmwareString(...)
T307C 000:048.992 - 0.015ms
T307C 000:056.532 JLINK_GetDLLVersion()
T307C 000:056.547 - 0.018ms returns 72202
T307C 000:056.573 JLINK_GetCompileDateTime()
T307C 000:056.579 - 0.008ms
T307C 000:059.410 JLINK_GetFirmwareString(...)
T307C 000:059.421 - 0.014ms
T307C 000:062.405 JLINK_GetHardwareVersion()
T307C 000:062.419 - 0.017ms returns 10000
T307C 000:066.478 JLINK_GetSN()
T307C 000:066.495 - 0.020ms returns 682218376
T307C 000:069.471 JLINK_GetOEMString(...)
T307C 000:074.399 JLINK_TIF_Select(JLINKARM_TIF_SWD)
T307C 000:085.322 - 10.935ms returns 0x00
T307C 000:085.366 JLINK_HasError()
T307C 000:085.383 JLINK_SetSpeed(5000)
T307C 000:086.234 - 0.858ms
T307C 000:086.269 JLINK_GetId()
T307C 000:090.099   InitTarget() start
T307C 000:090.112    J-Link Script File: Executing InitTarget()
T307C 000:100.726   InitTarget() end
T307C 000:105.181   Found SW-DP with ID 0x2BA01477
T307C 000:114.245   DPIDR: 0x2BA01477
T307C 000:116.831   Scanning AP map to find all available APs
T307C 000:122.434   AP[2]: Stopped AP scan as end of AP map has been reached
T307C 000:125.542   AP[0]: AHB-AP (IDR: 0x24770011)
T307C 000:128.743   AP[1]: JTAG-AP (IDR: 0x02880000)
T307C 000:131.654   Iterating through AP map to find AHB-AP to use
T307C 000:136.236   AP[0]: Core found
T307C 000:138.624   AP[0]: AHB-AP ROM base: 0xE00FF000
T307C 000:143.813   CPUID register: 0x410FC241. Implementer code: 0x41 (ARM)
T307C 000:146.330   Found Cortex-M4 r0p1, Little endian.
T307C 000:249.870   -- Max. mem block: 0x00003410
T307C 000:255.284   CPU_ReadMem(4 bytes @ 0xE000EDF0)
T307C 000:256.630   CPU_ReadMem(4 bytes @ 0xE0002000)
T307C 000:266.798   FPUnit: 6 code (BP) slots and 2 literal slots
T307C 000:266.862   CPU_ReadMem(4 bytes @ 0xE000EDFC)
T307C 000:268.105   CPU_ReadMem(4 bytes @ 0xE0001000)
T307C 000:269.519   CPU_WriteMem(4 bytes @ 0xE0001000)
T307C 000:270.845   CPU_ReadMem(4 bytes @ 0xE000ED88)
T307C 000:272.332   CPU_WriteMem(4 bytes @ 0xE000ED88)
T307C 000:273.677   CPU_ReadMem(4 bytes @ 0xE000ED88)
T307C 000:275.018   CPU_WriteMem(4 bytes @ 0xE000ED88)
T307C 000:286.376   CoreSight components:
T307C 000:289.306   ROMTbl[0] @ E00FF000
T307C 000:289.335   CPU_ReadMem(64 bytes @ 0xE00FF000)
T307C 000:291.238   CPU_ReadMem(32 bytes @ 0xE000EFE0)
T307C 000:295.489   ROMTbl[0][0]: E000E000, CID: B105E00D, PID: 000BB00C SCS-M7
T307C 000:295.515   CPU_ReadMem(32 bytes @ 0xE0001FE0)
T307C 000:300.020   ROMTbl[0][1]: E0001000, CID: B105E00D, PID: 003BB002 DWT
T307C 000:300.047   CPU_ReadMem(32 bytes @ 0xE0002FE0)
T307C 000:304.062   ROMTbl[0][2]: E0002000, CID: B105E00D, PID: 002BB003 FPB
T307C 000:304.080   CPU_ReadMem(32 bytes @ 0xE0000FE0)
T307C 000:308.809   ROMTbl[0][3]: E0000000, CID: B105E00D, PID: 003BB001 ITM
T307C 000:308.836   CPU_ReadMem(32 bytes @ 0xE0040FE0)
T307C 000:314.346   ROMTbl[0][4]: E0040000, CID: B105900D, PID: 000BB9A1 TPIU
T307C 000:314.372   CPU_ReadMem(32 bytes @ 0xE0041FE0)
T307C 000:318.228   ROMTbl[0][5]: E0041000, CID: B105900D, PID: 000BB925 ETM
T307C 000:319.060 - 232.799ms returns 0x2BA01477
T307C 000:319.101 JLINK_GetDLLVersion()
T307C 000:319.108 - 0.010ms returns 72202
T307C 000:319.116 JLINK_CORE_GetFound()
T307C 000:319.121 - 0.008ms returns 0xE0000FF
T307C 000:319.129 JLINK_GetDebugInfo(0x100 = JLINKARM_ROM_TABLE_ADDR_INDEX)
T307C 000:319.136   Value=0xE00FF000
T307C 000:319.144 - 0.017ms returns 0
T307C 000:322.019 JLINK_GetDebugInfo(0x100 = JLINKARM_ROM_TABLE_ADDR_INDEX)
T307C 000:322.032   Value=0xE00FF000
T307C 000:322.040 - 0.024ms returns 0
T307C 000:322.048 JLINK_GetDebugInfo(0x101 = JLINKARM_DEBUG_INFO_ETM_ADDR_INDEX)
T307C 000:322.054   Value=0xE0041000
T307C 000:322.062 - 0.016ms returns 0
T307C 000:322.074 JLINK_ReadMemEx(0xE0041FD0, 0x20 Bytes, Flags = 0x02000004)
T307C 000:322.097   CPU_ReadMem(32 bytes @ 0xE0041FD0)
T307C 000:373.768   Data:  04 00 00 00 00 00 00 00 00 00 00 00 00 00 00 00 ...
T307C 000:373.790 - 51.719ms returns 32 (0x20)
T307C 000:373.838 JLINK_GetDebugInfo(0x102 = JLINKARM_DEBUG_INFO_MTB_ADDR_INDEX)
T307C 000:373.849   Value=0x00000000
T307C 000:373.857 - 0.022ms returns 0
T307C 000:373.868 JLINK_GetDebugInfo(0x103 = JLINKARM_DEBUG_INFO_TPIU_ADDR_INDEX)
T307C 000:373.877   Value=0xE0040000
T307C 000:373.888 - 0.024ms returns 0
T307C 000:373.897 JLINK_GetDebugInfo(0x104 = JLINKARM_DEBUG_INFO_ITM_ADDR_INDEX)
T307C 000:373.904   Value=0xE0000000
T307C 000:373.915 - 0.021ms returns 0
T307C 000:373.927 JLINK_GetDebugInfo(0x105 = JLINKARM_DEBUG_INFO_DWT_ADDR_INDEX)
T307C 000:373.936   Value=0xE0001000
T307C 000:373.945 - 0.021ms returns 0
T307C 000:373.961 JLINK_GetDebugInfo(0x106 = JLINKARM_DEBUG_INFO_FPB_ADDR_INDEX)
T307C 000:373.970   Value=0xE0002000
T307C 000:373.981 - 0.024ms returns 0
T307C 000:373.992 JLINK_GetDebugInfo(0x107 = JLINKARM_DEBUG_INFO_NVIC_ADDR_INDEX)
T307C 000:374.001   Value=0xE000E000
T307C 000:374.012 - 0.024ms returns 0
T307C 000:374.022 JLINK_GetDebugInfo(0x10C = JLINKARM_DEBUG_INFO_DBG_ADDR_INDEX)
T307C 000:374.029   Value=0xE000EDF0
T307C 000:374.038 - 0.019ms returns 0
T307C 000:374.048 JLINK_GetDebugInfo(0x01 = Unknown)
T307C 000:374.057   Value=0x00000001
T307C 000:374.067 - 0.023ms returns 0
T307C 000:374.077 JLINK_ReadMemU32(0xE000ED00, 0x1 Items)
T307C 000:374.096   CPU_ReadMem(4 bytes @ 0xE000ED00)
T307C 000:375.741   Data:  41 C2 0F 41
T307C 000:375.770   Debug reg: CPUID
T307C 000:375.779 - 1.704ms returns 1 (0x1)
T307C 000:375.815 JLINK_GetDebugInfo(0x10F = JLINKARM_DEBUG_INFO_HAS_CORTEX_M_SECURITY_EXT_INDEX)
T307C 000:375.824   Value=0x00000000
T307C 000:375.832 - 0.019ms returns 0
T307C 000:375.840 JLINK_HasError()
T307C 000:375.849 JLINK_SetResetType(JLINKARM_CM3_RESET_TYPE_NORMAL)
T307C 000:375.855 - 0.008ms returns JLINKARM_CM3_RESET_TYPE_NORMAL
T307C 000:375.864 JLINK_Reset()
T307C 000:377.553   CPU is running
T307C 000:377.569   CPU_WriteMem(4 bytes @ 0xE000EDF0)
T307C 000:378.656   CPU is running
T307C 000:378.670   CPU_WriteMem(4 bytes @ 0xE000EDFC)
T307C 000:382.428   Reset: Halt core after reset via DEMCR.VC_CORERESET.
T307C 000:387.013   Reset: Reset device via AIRCR.SYSRESETREQ.
T307C 000:387.029   CPU is running
T307C 000:387.040   CPU_WriteMem(4 bytes @ 0xE000ED0C)
T307C 000:441.728   CPU_ReadMem(4 bytes @ 0xE000EDF0)
T307C 000:443.028   CPU_ReadMem(4 bytes @ 0xE000EDF0)
T307C 000:444.176   CPU is running
T307C 000:444.194   CPU_WriteMem(4 bytes @ 0xE000EDF0)
T307C 000:445.353   CPU is running
T307C 000:445.377   CPU_WriteMem(4 bytes @ 0xE000EDFC)
T307C 000:451.985   CPU_ReadMem(4 bytes @ 0xE000EDF0)
T307C 000:460.922   CPU_WriteMem(4 bytes @ 0xE0002000)
T307C 000:462.188   CPU_ReadMem(4 bytes @ 0xE000EDFC)
T307C 000:463.409   CPU_ReadMem(4 bytes @ 0xE0001000)
T307C 000:464.818 - 88.970ms
T307C 000:464.871 JLINK_Halt()
T307C 000:464.881 - 0.013ms returns 0x00
T307C 000:464.891 JLINK_ReadMemU32(0xE000EDF0, 0x1 Items)
T307C 000:464.908   CPU_ReadMem(4 bytes @ 0xE000EDF0)
T307C 000:518.916   Data:  03 00 03 00
T307C 000:518.937   Debug reg: DHCSR
T307C 000:518.946 - 54.057ms returns 1 (0x1)
T307C 000:518.982 JLINK_WriteU32_64(0xE000EDF0, 0xA05F0003)
T307C 000:518.997   Debug reg: DHCSR
T307C 000:519.335   CPU_WriteMem(4 bytes @ 0xE000EDF0)
T307C 000:520.368 - 1.396ms returns 0 (0x00000000)
T307C 000:520.410 JLINK_WriteU32_64(0xE000EDFC, 0x01000000)
T307C 000:520.419   Debug reg: DEMCR
T307C 000:520.434   CPU_WriteMem(4 bytes @ 0xE000EDFC)
T307C 000:521.533 - 1.129ms returns 0 (0x00000000)
T307C 000:532.768 JLINK_GetHWStatus(...)
T307C 000:533.424 - 0.665ms returns 0
T307C 000:540.879 JLINK_GetNumBPUnits(Type = 0xFFFFFF00)
T307C 000:540.894 - 0.018ms returns 0x06
T307C 000:540.903 JLINK_GetNumBPUnits(Type = 0xF0)
T307C 000:540.909 - 0.009ms returns 0x2000
T307C 000:540.916 JLINK_GetNumWPUnits()
T307C 000:540.922 - 0.009ms returns 4
T307C 000:549.069 JLINK_GetSpeed()
T307C 000:549.089 - 0.023ms returns 1000
T307C 000:553.786 JLINK_ReadMemU32(0xE000E004, 0x1 Items)
T307C 000:553.811   CPU_ReadMem(4 bytes @ 0xE000E004)
T307C 000:554.939   Data:  01 00 00 00
T307C 000:554.953 - 1.170ms returns 1 (0x1)
T307C 000:554.983 JLINK_ReadMemU32(0xE000E004, 0x1 Items)
T307C 000:554.995   CPU_ReadMem(4 bytes @ 0xE000E004)
T307C 000:556.094   Data:  01 00 00 00
T307C 000:556.107 - 1.127ms returns 1 (0x1)
T307C 000:556.136 JLINK_WriteMemEx(0xE0001000, 0x0000001C Bytes, Flags = 0x02000004)
T307C 000:556.145   Data:  01 00 00 00 00 00 00 00 00 00 00 00 00 00 00 00 ...
T307C 000:556.160   CPU_WriteMem(28 bytes @ 0xE0001000)
T307C 000:557.584 - 1.454ms returns 0x1C
T307C 000:557.620 JLINK_Halt()
T307C 000:557.628 - 0.010ms returns 0x00
T307C 000:557.635 JLINK_IsHalted()
T307C 000:557.642 - 0.009ms returns TRUE
T307C 000:560.156 JLINK_WriteMem(0x20000000, 0x5B8 Bytes, ...)
T307C 000:560.167   Data:  00 BE 0A E0 0D 78 2D 06 68 40 08 24 40 00 00 D3 ...
T307C 000:560.471   CPU_WriteMem(1464 bytes @ 0x20000000)
T307C 000:580.149 - 20.009ms returns 0x5B8
T307C 000:580.232 JLINK_HasError()
T307C 000:580.260 JLINK_WriteReg(R0, 0x00000000)
T307C 000:580.274 - 0.017ms returns 0
T307C 000:580.282 JLINK_WriteReg(R1, 0x03D09000)
T307C 000:580.289 - 0.009ms returns 0
T307C 000:580.296 JLINK_WriteReg(R2, 0x00000001)
T307C 000:580.303 - 0.009ms returns 0
T307C 000:580.310 JLINK_WriteReg(R3, 0x00000000)
T307C 000:580.317 - 0.009ms returns 0
T307C 000:580.324 JLINK_WriteReg(R4, 0x00000000)
T307C 000:580.330 - 0.009ms returns 0
T307C 000:580.338 JLINK_WriteReg(R5, 0x00000000)
T307C 000:580.344 - 0.009ms returns 0
T307C 000:580.352 JLINK_WriteReg(R6, 0x00000000)
T307C 000:580.358 - 0.009ms returns 0
T307C 000:580.365 JLINK_WriteReg(R7, 0x00000000)
T307C 000:580.371 - 0.009ms returns 0
T307C 000:580.379 JLINK_WriteReg(R8, 0x00000000)
T307C 000:580.394 - 0.018ms returns 0
T307C 000:580.402 JLINK_WriteReg(R9, 0x200005B4)
T307C 000:580.408 - 0.009ms returns 0
T307C 000:580.415 JLINK_WriteReg(R10, 0x00000000)
T307C 000:580.421 - 0.008ms returns 0
T307C 000:580.428 JLINK_WriteReg(R11, 0x00000000)
T307C 000:580.434 - 0.008ms returns 0
T307C 000:580.442 JLINK_WriteReg(R12, 0x00000000)
T307C 000:580.447 - 0.008ms returns 0
T307C 000:580.455 JLINK_WriteReg(R13 (SP), 0x20002000)
T307C 000:580.461 - 0.009ms returns 0
T307C 000:580.469 JLINK_WriteReg(R14, 0x20000001)
T307C 000:580.475 - 0.008ms returns 0
T307C 000:580.482 JLINK_WriteReg(R15 (PC), 0x20000020)
T307C 000:580.496 - 0.017ms returns 0
T307C 000:580.504 JLINK_WriteReg(XPSR, 0x01000000)
T307C 000:580.510 - 0.008ms returns 0
T307C 000:580.517 JLINK_WriteReg(MSP, 0x20002000)
T307C 000:580.523 - 0.008ms returns 0
T307C 000:580.530 JLINK_WriteReg(PSP, 0x20002000)
T307C 000:580.536 - 0.008ms returns 0
T307C 000:580.543 JLINK_WriteReg(CFBP, 0x00000000)
T307C 000:580.549 - 0.008ms returns 0
T307C 000:580.557 JLINK_SetBPEx(Addr = 0x20000000, Type = 0xFFFFFFF2)
T307C 000:580.569   CPU_ReadMem(2 bytes @ 0x20000000)
T307C 000:581.759 - 1.214ms returns 0x00000001
T307C 000:581.800 JLINK_Go()
T307C 000:581.813   CPU_WriteMem(2 bytes @ 0x20000000)
T307C 000:582.898   CPU_ReadMem(4 bytes @ 0xE0001000)
T307C 000:584.082   CPU_WriteMem(4 bytes @ 0xE0002008)
T307C 000:584.098   CPU_WriteMem(4 bytes @ 0xE000200C)
T307C 000:584.107   CPU_WriteMem(4 bytes @ 0xE0002010)
T307C 000:584.116   CPU_WriteMem(4 bytes @ 0xE0002014)
T307C 000:584.125   CPU_WriteMem(4 bytes @ 0xE0002018)
T307C 000:584.133   CPU_WriteMem(4 bytes @ 0xE000201C)
T307C 000:587.440   CPU_WriteMem(4 bytes @ 0xE0001004)
T307C 000:595.433 - 13.646ms
T307C 000:595.475 JLINK_IsHalted()
T307C 000:602.979   CPU_ReadMem(2 bytes @ 0x20000000)
T307C 000:604.084 - 8.616ms returns TRUE
T307C 000:604.121 JLINK_ReadReg(R15 (PC))
T307C 000:604.133 - 0.016ms returns 0x20000000
T307C 000:604.142 JLINK_ClrBPEx(BPHandle = 0x00000001)
T307C 000:604.149 - 0.010ms returns 0x00
T307C 000:604.158 JLINK_ReadReg(R0)
T307C 000:604.165 - 0.010ms returns 0x00000000
T307C 000:605.018 JLINK_HasError()
T307C 000:605.036 JLINK_WriteReg(R0, 0x00000000)
T307C 000:605.045 - 0.012ms returns 0
T307C 000:605.053 JLINK_WriteReg(R1, 0x00001000)
T307C 000:605.060 - 0.009ms returns 0
T307C 000:605.068 JLINK_WriteReg(R2, 0x000000FF)
T307C 000:605.074 - 0.009ms returns 0
T307C 000:605.085 JLINK_WriteReg(R3, 0x00000000)
T307C 000:605.091 - 0.009ms returns 0
T307C 000:605.099 JLINK_WriteReg(R4, 0x00000000)
T307C 000:605.106 - 0.009ms returns 0
T307C 000:605.114 JLINK_WriteReg(R5, 0x00000000)
T307C 000:605.120 - 0.009ms returns 0
T307C 000:605.128 JLINK_WriteReg(R6, 0x00000000)
T307C 000:605.134 - 0.009ms returns 0
T307C 000:605.143 JLINK_WriteReg(R7, 0x00000000)
T307C 000:605.150 - 0.009ms returns 0
T307C 000:605.158 JLINK_WriteReg(R8, 0x00000000)
T307C 000:605.164 - 0.009ms returns 0
T307C 000:605.172 JLINK_WriteReg(R9, 0x200005B4)
T307C 000:605.178 - 0.009ms returns 0
T307C 000:605.186 JLINK_WriteReg(R10, 0x00000000)
T307C 000:605.193 - 0.009ms returns 0
T307C 000:605.202 JLINK_WriteReg(R11, 0x00000000)
T307C 000:605.208 - 0.009ms returns 0
T307C 000:605.216 JLINK_WriteReg(R12, 0x00000000)
T307C 000:605.222 - 0.009ms returns 0
T307C 000:605.230 JLINK_WriteReg(R13 (SP), 0x20002000)
T307C 000:605.237 - 0.010ms returns 0
T307C 000:605.245 JLINK_WriteReg(R14, 0x20000001)
T307C 000:605.252 - 0.009ms returns 0
T307C 000:605.261 JLINK_WriteReg(R15 (PC), 0x20000288)
T307C 000:605.267 - 0.009ms returns 0
T307C 000:605.277 JLINK_WriteReg(XPSR, 0x01000000)
T307C 000:605.283 - 0.009ms returns 0
T307C 000:605.293 JLINK_WriteReg(MSP, 0x20002000)
T307C 000:605.299 - 0.009ms returns 0
T307C 000:605.308 JLINK_WriteReg(PSP, 0x20002000)
T307C 000:605.315 - 0.009ms returns 0
T307C 000:605.324 JLINK_WriteReg(CFBP, 0x00000000)
T307C 000:605.330 - 0.009ms returns 0
T307C 000:605.338 JLINK_SetBPEx(Addr = 0x20000000, Type = 0xFFFFFFF2)
T307C 000:605.346 - 0.010ms returns 0x00000002
T307C 000:605.354 JLINK_Go()
T307C 000:605.368   CPU_ReadMem(4 bytes @ 0xE0001000)
T307C 000:665.368 - 60.031ms
T307C 000:665.421 JLINK_IsHalted()
T307C 000:672.993   CPU_ReadMem(2 bytes @ 0x20000000)
T307C 000:674.282 - 8.877ms returns TRUE
T307C 000:674.335 JLINK_ReadReg(R15 (PC))
T307C 000:674.347 - 0.016ms returns 0x20000000
T307C 000:674.356 JLINK_ClrBPEx(BPHandle = 0x00000002)
T307C 000:674.363 - 0.010ms returns 0x00
T307C 000:674.371 JLINK_ReadReg(R0)
T307C 000:674.378 - 0.009ms returns 0x00000001
T307C 000:674.387 JLINK_HasError()
T307C 000:674.435 JLINK_WriteReg(R0, 0x00000000)
T307C 000:674.446 - 0.014ms returns 0
T307C 000:674.456 JLINK_WriteReg(R1, 0x00001000)
T307C 000:674.462 - 0.009ms returns 0
T307C 000:674.470 JLINK_WriteReg(R2, 0x000000FF)
T307C 000:674.476 - 0.009ms returns 0
T307C 000:674.485 JLINK_WriteReg(R3, 0x00000000)
T307C 000:674.491 - 0.009ms returns 0
T307C 000:674.500 JLINK_WriteReg(R4, 0x00000000)
T307C 000:674.506 - 0.008ms returns 0
T307C 000:674.513 JLINK_WriteReg(R5, 0x00000000)
T307C 000:674.519 - 0.008ms returns 0
T307C 000:674.526 JLINK_WriteReg(R6, 0x00000000)
T307C 000:674.532 - 0.008ms returns 0
T307C 000:674.540 JLINK_WriteReg(R7, 0x00000000)
T307C 000:674.546 - 0.008ms returns 0
T307C 000:674.554 JLINK_WriteReg(R8, 0x00000000)
T307C 000:674.560 - 0.009ms returns 0
T307C 000:674.567 JLINK_WriteReg(R9, 0x200005B4)
T307C 000:674.573 - 0.008ms returns 0
T307C 000:674.580 JLINK_WriteReg(R10, 0x00000000)
T307C 000:674.586 - 0.008ms returns 0
T307C 000:674.594 JLINK_WriteReg(R11, 0x00000000)
T307C 000:674.600 - 0.008ms returns 0
T307C 000:674.608 JLINK_WriteReg(R12, 0x00000000)
T307C 000:674.614 - 0.008ms returns 0
T307C 000:674.622 JLINK_WriteReg(R13 (SP), 0x20002000)
T307C 000:674.629 - 0.009ms returns 0
T307C 000:674.636 JLINK_WriteReg(R14, 0x20000001)
T307C 000:674.642 - 0.008ms returns 0
T307C 000:674.649 JLINK_WriteReg(R15 (PC), 0x200000D4)
T307C 000:674.655 - 0.008ms returns 0
T307C 000:674.662 JLINK_WriteReg(XPSR, 0x01000000)
T307C 000:674.668 - 0.008ms returns 0
T307C 000:674.676 JLINK_WriteReg(MSP, 0x20002000)
T307C 000:674.682 - 0.008ms returns 0
T307C 000:674.690 JLINK_WriteReg(PSP, 0x20002000)
T307C 000:674.696 - 0.008ms returns 0
T307C 000:674.703 JLINK_WriteReg(CFBP, 0x00000000)
T307C 000:674.709 - 0.008ms returns 0
T307C 000:674.716 JLINK_SetBPEx(Addr = 0x20000000, Type = 0xFFFFFFF2)
T307C 000:674.733 - 0.019ms returns 0x00000003
T307C 000:674.745 JLINK_Go()
T307C 000:674.759   CPU_ReadMem(4 bytes @ 0xE0001000)
T307C 000:683.189 - 8.461ms
T307C 000:683.238 JLINK_IsHalted()
T307C 000:684.388 - 1.158ms returns FALSE
T307C 000:684.425 JLINK_HasError()
T307C 000:699.694 JLINK_IsHalted()
T307C 000:700.704 - 1.025ms returns FALSE
T307C 000:700.767 JLINK_HasError()
T307C 000:702.801 JLINK_IsHalted()
T307C 000:703.901 - 1.113ms returns FALSE
T307C 000:703.945 JLINK_HasError()
T307C 000:705.769 JLINK_IsHalted()
T307C 000:707.149 - 1.396ms returns FALSE
T307C 000:707.200 JLINK_HasError()
T307C 000:708.294 JLINK_IsHalted()
T307C 000:709.683 - 1.406ms returns FALSE
T307C 000:709.734 JLINK_HasError()
T307C 000:711.812 JLINK_IsHalted()
T307C 000:713.207 - 1.412ms returns FALSE
T307C 000:713.258 JLINK_HasError()
T307C 000:714.782 JLINK_IsHalted()
T307C 000:716.019 - 1.246ms returns FALSE
T307C 000:716.057 JLINK_HasError()
T307C 000:717.667 JLINK_IsHalted()
T307C 000:719.321 - 1.668ms returns FALSE
T307C 000:719.365 JLINK_HasError()
T307C 000:720.655 JLINK_IsHalted()
T307C 000:721.901 - 1.253ms returns FALSE
T307C 000:721.935 JLINK_HasError()
T307C 000:723.712 JLINK_IsHalted()
T307C 000:724.967 - 1.262ms returns FALSE
T307C 000:725.001 JLINK_HasError()
T307C 000:726.701 JLINK_IsHalted()
T307C 000:727.796 - 1.102ms returns FALSE
T307C 000:727.830 JLINK_HasError()
T307C 000:729.875 JLINK_IsHalted()
T307C 000:788.441   CPU_ReadMem(2 bytes @ 0x20000000)
T307C 000:789.671 - 59.806ms returns TRUE
T307C 000:789.723 JLINK_ReadReg(R15 (PC))
T307C 000:789.736 - 0.015ms returns 0x20000000
T307C 000:789.744 JLINK_ClrBPEx(BPHandle = 0x00000003)
T307C 000:789.751 - 0.009ms returns 0x00
T307C 000:789.759 JLINK_ReadReg(R0)
T307C 000:789.765 - 0.009ms returns 0x00000000
T307C 000:790.335 JLINK_HasError()
T307C 000:790.351 JLINK_WriteReg(R0, 0x00001000)
T307C 000:790.359 - 0.017ms returns 0
T307C 000:790.373 JLINK_WriteReg(R1, 0x00001000)
T307C 000:790.379 - 0.009ms returns 0
T307C 000:790.387 JLINK_WriteReg(R2, 0x000000FF)
T307C 000:790.393 - 0.008ms returns 0
T307C 000:790.400 JLINK_WriteReg(R3, 0x00000000)
T307C 000:790.406 - 0.008ms returns 0
T307C 000:790.418 JLINK_WriteReg(R4, 0x00000000)
T307C 000:790.428 - 0.012ms returns 0
T307C 000:790.435 JLINK_WriteReg(R5, 0x00000000)
T307C 000:790.441 - 0.008ms returns 0
T307C 000:790.448 JLINK_WriteReg(R6, 0x00000000)
T307C 000:790.454 - 0.008ms returns 0
T307C 000:790.461 JLINK_WriteReg(R7, 0x00000000)
T307C 000:790.467 - 0.008ms returns 0
T307C 000:790.474 JLINK_WriteReg(R8, 0x00000000)
T307C 000:790.480 - 0.008ms returns 0
T307C 000:790.487 JLINK_WriteReg(R9, 0x200005B4)
T307C 000:790.493 - 0.008ms returns 0
T307C 000:790.500 JLINK_WriteReg(R10, 0x00000000)
T307C 000:790.506 - 0.008ms returns 0
T307C 000:790.514 JLINK_WriteReg(R11, 0x00000000)
T307C 000:790.520 - 0.008ms returns 0
T307C 000:790.527 JLINK_WriteReg(R12, 0x00000000)
T307C 000:790.533 - 0.008ms returns 0
T307C 000:790.540 JLINK_WriteReg(R13 (SP), 0x20002000)
T307C 000:790.546 - 0.009ms returns 0
T307C 000:790.553 JLINK_WriteReg(R14, 0x20000001)
T307C 000:790.560 - 0.009ms returns 0
T307C 000:790.567 JLINK_WriteReg(R15 (PC), 0x20000288)
T307C 000:790.573 - 0.008ms returns 0
T307C 000:790.580 JLINK_WriteReg(XPSR, 0x01000000)
T307C 000:790.586 - 0.008ms returns 0
T307C 000:790.593 JLINK_WriteReg(MSP, 0x20002000)
T307C 000:790.599 - 0.009ms returns 0
T307C 000:790.607 JLINK_WriteReg(PSP, 0x20002000)
T307C 000:790.614 - 0.010ms returns 0
T307C 000:790.622 JLINK_WriteReg(CFBP, 0x00000000)
T307C 000:790.628 - 0.010ms returns 0
T307C 000:790.637 JLINK_SetBPEx(Addr = 0x20000000, Type = 0xFFFFFFF2)
T307C 000:790.644 - 0.010ms returns 0x00000004
T307C 000:790.652 JLINK_Go()
T307C 000:790.666   CPU_ReadMem(4 bytes @ 0xE0001000)
T307C 000:798.858 - 8.222ms
T307C 000:798.908 JLINK_IsHalted()
T307C 000:806.389   CPU_ReadMem(2 bytes @ 0x20000000)
T307C 000:807.741 - 8.857ms returns TRUE
T307C 000:807.798 JLINK_ReadReg(R15 (PC))
T307C 000:807.811 - 0.015ms returns 0x20000000
T307C 000:807.819 JLINK_ClrBPEx(BPHandle = 0x00000004)
T307C 000:807.826 - 0.010ms returns 0x00
T307C 000:807.834 JLINK_ReadReg(R0)
T307C 000:807.840 - 0.009ms returns 0x00000001
T307C 000:807.848 JLINK_HasError()
T307C 000:807.857 JLINK_WriteReg(R0, 0x00001000)
T307C 000:807.864 - 0.010ms returns 0
T307C 000:807.871 JLINK_WriteReg(R1, 0x00001000)
T307C 000:807.878 - 0.009ms returns 0
T307C 000:807.885 JLINK_WriteReg(R2, 0x000000FF)
T307C 000:807.891 - 0.009ms returns 0
T307C 000:807.899 JLINK_WriteReg(R3, 0x00000000)
T307C 000:807.904 - 0.008ms returns 0
T307C 000:807.912 JLINK_WriteReg(R4, 0x00000000)
T307C 000:807.918 - 0.008ms returns 0
T307C 000:807.925 JLINK_WriteReg(R5, 0x00000000)
T307C 000:807.931 - 0.008ms returns 0
T307C 000:807.938 JLINK_WriteReg(R6, 0x00000000)
T307C 000:807.944 - 0.008ms returns 0
T307C 000:807.952 JLINK_WriteReg(R7, 0x00000000)
T307C 000:807.958 - 0.008ms returns 0
T307C 000:807.965 JLINK_WriteReg(R8, 0x00000000)
T307C 000:807.971 - 0.008ms returns 0
T307C 000:807.978 JLINK_WriteReg(R9, 0x200005B4)
T307C 000:807.984 - 0.008ms returns 0
T307C 000:807.991 JLINK_WriteReg(R10, 0x00000000)
T307C 000:807.997 - 0.009ms returns 0
T307C 000:808.005 JLINK_WriteReg(R11, 0x00000000)
T307C 000:808.011 - 0.008ms returns 0
T307C 000:808.018 JLINK_WriteReg(R12, 0x00000000)
T307C 000:808.024 - 0.008ms returns 0
T307C 000:808.031 JLINK_WriteReg(R13 (SP), 0x20002000)
T307C 000:808.037 - 0.009ms returns 0
T307C 000:808.044 JLINK_WriteReg(R14, 0x20000001)
T307C 000:808.050 - 0.008ms returns 0
T307C 000:808.058 JLINK_WriteReg(R15 (PC), 0x200000D4)
T307C 000:808.064 - 0.008ms returns 0
T307C 000:808.071 JLINK_WriteReg(XPSR, 0x01000000)
T307C 000:808.077 - 0.009ms returns 0
T307C 000:808.084 JLINK_WriteReg(MSP, 0x20002000)
T307C 000:808.090 - 0.008ms returns 0
T307C 000:808.097 JLINK_WriteReg(PSP, 0x20002000)
T307C 000:808.103 - 0.008ms returns 0
T307C 000:808.111 JLINK_WriteReg(CFBP, 0x00000000)
T307C 000:808.116 - 0.008ms returns 0
T307C 000:808.124 JLINK_SetBPEx(Addr = 0x20000000, Type = 0xFFFFFFF2)
T307C 000:808.131 - 0.009ms returns 0x00000005
T307C 000:808.138 JLINK_Go()
T307C 000:808.152   CPU_ReadMem(4 bytes @ 0xE0001000)
T307C 000:816.048 - 7.927ms
T307C 000:816.092 JLINK_IsHalted()
T307C 000:817.378 - 1.292ms returns FALSE
T307C 000:817.409 JLINK_HasError()
T307C 000:821.724 JLINK_IsHalted()
T307C 000:822.985 - 1.275ms returns FALSE
T307C 000:823.032 JLINK_HasError()
T307C 000:825.022 JLINK_IsHalted()
T307C 000:826.334 - 1.329ms returns FALSE
T307C 000:826.385 JLINK_HasError()
T307C 000:828.710 JLINK_IsHalted()
T307C 000:829.960 - 1.257ms returns FALSE
T307C 000:829.995 JLINK_HasError()
T307C 000:831.906 JLINK_IsHalted()
T307C 000:832.896 - 1.002ms returns FALSE
T307C 000:832.941 JLINK_HasError()
T307C 000:834.718 JLINK_IsHalted()
T307C 000:836.068 - 1.366ms returns FALSE
T307C 000:836.119 JLINK_HasError()
T307C 000:838.061 JLINK_IsHalted()
T307C 000:839.299 - 1.248ms returns FALSE
T307C 000:839.338 JLINK_HasError()
T307C 000:840.920 JLINK_IsHalted()
T307C 000:842.034 - 1.129ms returns FALSE
T307C 000:842.089 JLINK_HasError()
T307C 000:845.282 JLINK_IsHalted()
T307C 000:846.516 - 1.241ms returns FALSE
T307C 000:846.550 JLINK_HasError()
T307C 000:847.921 JLINK_IsHalted()
T307C 000:849.198 - 1.289ms returns FALSE
T307C 000:849.241 JLINK_HasError()
T307C 000:851.918 JLINK_IsHalted()
T307C 000:910.305   CPU_ReadMem(2 bytes @ 0x20000000)
T307C 000:911.351 - 59.446ms returns TRUE
T307C 000:911.399 JLINK_ReadReg(R15 (PC))
T307C 000:911.411 - 0.015ms returns 0x20000000
T307C 000:911.419 JLINK_ClrBPEx(BPHandle = 0x00000005)
T307C 000:911.426 - 0.009ms returns 0x00
T307C 000:911.434 JLINK_ReadReg(R0)
T307C 000:911.440 - 0.009ms returns 0x00000000
T307C 000:911.776 JLINK_HasError()
T307C 000:911.788 JLINK_WriteReg(R0, 0x00000001)
T307C 000:911.797 - 0.011ms returns 0
T307C 000:911.805 JLINK_WriteReg(R1, 0x00001000)
T307C 000:911.811 - 0.009ms returns 0
T307C 000:911.818 JLINK_WriteReg(R2, 0x000000FF)
T307C 000:911.824 - 0.008ms returns 0
T307C 000:911.831 JLINK_WriteReg(R3, 0x00000000)
T307C 000:911.837 - 0.008ms returns 0
T307C 000:911.845 JLINK_WriteReg(R4, 0x00000000)
T307C 000:911.850 - 0.008ms returns 0
T307C 000:911.858 JLINK_WriteReg(R5, 0x00000000)
T307C 000:911.864 - 0.008ms returns 0
T307C 000:911.871 JLINK_WriteReg(R6, 0x00000000)
T307C 000:911.877 - 0.008ms returns 0
T307C 000:911.884 JLINK_WriteReg(R7, 0x00000000)
T307C 000:911.890 - 0.008ms returns 0
T307C 000:911.897 JLINK_WriteReg(R8, 0x00000000)
T307C 000:911.903 - 0.009ms returns 0
T307C 000:911.911 JLINK_WriteReg(R9, 0x200005B4)
T307C 000:911.917 - 0.008ms returns 0
T307C 000:911.924 JLINK_WriteReg(R10, 0x00000000)
T307C 000:911.930 - 0.008ms returns 0
T307C 000:911.937 JLINK_WriteReg(R11, 0x00000000)
T307C 000:911.943 - 0.008ms returns 0
T307C 000:911.950 JLINK_WriteReg(R12, 0x00000000)
T307C 000:911.956 - 0.008ms returns 0
T307C 000:911.963 JLINK_WriteReg(R13 (SP), 0x20002000)
T307C 000:911.969 - 0.009ms returns 0
T307C 000:911.977 JLINK_WriteReg(R14, 0x20000001)
T307C 000:911.982 - 0.008ms returns 0
T307C 000:911.990 JLINK_WriteReg(R15 (PC), 0x20000060)
T307C 000:911.996 - 0.008ms returns 0
T307C 000:912.003 JLINK_WriteReg(XPSR, 0x01000000)
T307C 000:912.009 - 0.008ms returns 0
T307C 000:912.016 JLINK_WriteReg(MSP, 0x20002000)
T307C 000:912.022 - 0.008ms returns 0
T307C 000:912.029 JLINK_WriteReg(PSP, 0x20002000)
T307C 000:912.035 - 0.008ms returns 0
T307C 000:912.042 JLINK_WriteReg(CFBP, 0x00000000)
T307C 000:912.048 - 0.008ms returns 0
T307C 000:912.055 JLINK_SetBPEx(Addr = 0x20000000, Type = 0xFFFFFFF2)
T307C 000:912.062 - 0.009ms returns 0x00000006
T307C 000:912.070 JLINK_Go()
T307C 000:912.084   CPU_ReadMem(4 bytes @ 0xE0001000)
T307C 000:920.320 - 8.274ms
T307C 000:920.377 JLINK_IsHalted()
T307C 000:927.993   CPU_ReadMem(2 bytes @ 0x20000000)
T307C 000:929.262 - 8.901ms returns TRUE
T307C 000:929.312 JLINK_ReadReg(R15 (PC))
T307C 000:929.325 - 0.016ms returns 0x20000000
T307C 000:929.333 JLINK_ClrBPEx(BPHandle = 0x00000006)
T307C 000:929.340 - 0.010ms returns 0x00
T307C 000:929.348 JLINK_ReadReg(R0)
T307C 000:929.354 - 0.009ms returns 0x00000000
T307C 000:990.788 JLINK_WriteMem(0x20000000, 0x5B8 Bytes, ...)
T307C 000:990.809   Data:  00 BE 0A E0 0D 78 2D 06 68 40 08 24 40 00 00 D3 ...
T307C 000:990.829   CPU_WriteMem(1464 bytes @ 0x20000000)
T307C 001:042.942 - 52.170ms returns 0x5B8
T307C 001:043.027 JLINK_HasError()
T307C 001:043.039 JLINK_WriteReg(R0, 0x00000000)
T307C 001:043.050 - 0.013ms returns 0
T307C 001:043.059 JLINK_WriteReg(R1, 0x03D09000)
T307C 001:043.065 - 0.009ms returns 0
T307C 001:043.073 JLINK_WriteReg(R2, 0x00000002)
T307C 001:043.079 - 0.009ms returns 0
T307C 001:043.087 JLINK_WriteReg(R3, 0x00000000)
T307C 001:043.093 - 0.009ms returns 0
T307C 001:043.101 JLINK_WriteReg(R4, 0x00000000)
T307C 001:043.107 - 0.009ms returns 0
T307C 001:043.119 JLINK_WriteReg(R5, 0x00000000)
T307C 001:043.125 - 0.009ms returns 0
T307C 001:043.133 JLINK_WriteReg(R6, 0x00000000)
T307C 001:043.140 - 0.009ms returns 0
T307C 001:043.147 JLINK_WriteReg(R7, 0x00000000)
T307C 001:043.153 - 0.009ms returns 0
T307C 001:043.161 JLINK_WriteReg(R8, 0x00000000)
T307C 001:043.167 - 0.009ms returns 0
T307C 001:043.175 JLINK_WriteReg(R9, 0x200005B4)
T307C 001:043.181 - 0.008ms returns 0
T307C 001:043.189 JLINK_WriteReg(R10, 0x00000000)
T307C 001:043.195 - 0.009ms returns 0
T307C 001:043.204 JLINK_WriteReg(R11, 0x00000000)
T307C 001:043.210 - 0.008ms returns 0
T307C 001:043.218 JLINK_WriteReg(R12, 0x00000000)
T307C 001:043.224 - 0.008ms returns 0
T307C 001:043.233 JLINK_WriteReg(R13 (SP), 0x20002000)
T307C 001:043.239 - 0.009ms returns 0
T307C 001:043.248 JLINK_WriteReg(R14, 0x20000001)
T307C 001:043.254 - 0.008ms returns 0
T307C 001:043.261 JLINK_WriteReg(R15 (PC), 0x20000020)
T307C 001:043.267 - 0.008ms returns 0
T307C 001:043.274 JLINK_WriteReg(XPSR, 0x01000000)
T307C 001:043.280 - 0.008ms returns 0
T307C 001:043.288 JLINK_WriteReg(MSP, 0x20002000)
T307C 001:043.294 - 0.008ms returns 0
T307C 001:043.302 JLINK_WriteReg(PSP, 0x20002000)
T307C 001:043.308 - 0.008ms returns 0
T307C 001:043.317 JLINK_WriteReg(CFBP, 0x00000000)
T307C 001:043.323 - 0.008ms returns 0
T307C 001:043.331 JLINK_SetBPEx(Addr = 0x20000000, Type = 0xFFFFFFF2)
T307C 001:043.342   CPU_ReadMem(2 bytes @ 0x20000000)
T307C 001:044.560 - 1.248ms returns 0x00000007
T307C 001:044.627 JLINK_Go()
T307C 001:044.646   CPU_WriteMem(2 bytes @ 0x20000000)
T307C 001:045.673   CPU_ReadMem(4 bytes @ 0xE0001000)
T307C 001:053.924 - 9.314ms
T307C 001:053.977 JLINK_IsHalted()
T307C 001:061.737   CPU_ReadMem(2 bytes @ 0x20000000)
T307C 001:063.039 - 9.079ms returns TRUE
T307C 001:063.092 JLINK_ReadReg(R15 (PC))
T307C 001:063.105 - 0.016ms returns 0x20000000
T307C 001:063.113 JLINK_ClrBPEx(BPHandle = 0x00000007)
T307C 001:063.120 - 0.009ms returns 0x00
T307C 001:063.128 JLINK_ReadReg(R0)
T307C 001:063.135 - 0.009ms returns 0x00000000
T307C 001:064.911 JLINK_WriteMem(0x200005C8, 0x238 Bytes, ...)
T307C 001:064.928   Data:  38 26 00 20 FD 02 00 00 05 03 00 00 07 03 00 00 ...
T307C 001:064.950   CPU_WriteMem(568 bytes @ 0x200005C8)
T307C 001:073.344 - 8.450ms returns 0x238
T307C 001:073.397 JLINK_WriteMem(0x20000800, 0x400 Bytes, ...)
T307C 001:073.406   Data:  40 EA 01 05 44 E8 00 53 00 2B F7 D1 15 60 30 BC ...
T307C 001:073.429   CPU_WriteMem(1024 bytes @ 0x20000800)
T307C 001:087.620 - 14.240ms returns 0x400
T307C 001:087.676 JLINK_WriteMem(0x20000C00, 0x400 Bytes, ...)
T307C 001:087.686   Data:  00 20 01 E0 01 C1 12 1F 00 2A FB D1 70 47 00 00 ...
T307C 001:087.723   CPU_WriteMem(1024 bytes @ 0x20000C00)
T307C 001:154.869 - 67.208ms returns 0x400
T307C 001:154.923 JLINK_WriteMem(0x20001000, 0x400 Bytes, ...)
T307C 001:154.932   Data:  01 22 82 40 04 48 80 68 11 B1 C0 F8 08 25 70 47 ...
T307C 001:154.961   CPU_WriteMem(1024 bytes @ 0x20001000)
T307C 001:169.021 - 14.124ms returns 0x400
T307C 001:169.094 JLINK_WriteMem(0x20001400, 0x1C8 Bytes, ...)
T307C 001:169.105   Data:  70 47 00 00 2D E9 FF 47 FF F7 CC FD 18 B1 00 20 ...
T307C 001:169.131   CPU_WriteMem(456 bytes @ 0x20001400)
T307C 001:176.015 - 6.938ms returns 0x1C8
T307C 001:176.069 JLINK_HasError()
T307C 001:176.130 JLINK_WriteReg(R0, 0x00000000)
T307C 001:176.142 - 0.015ms returns 0
T307C 001:176.150 JLINK_WriteReg(R1, 0x00001000)
T307C 001:176.157 - 0.010ms returns 0
T307C 001:176.165 JLINK_WriteReg(R2, 0x200005C8)
T307C 001:176.171 - 0.008ms returns 0
T307C 001:176.178 JLINK_WriteReg(R3, 0x00000000)
T307C 001:176.184 - 0.008ms returns 0
T307C 001:176.193 JLINK_WriteReg(R4, 0x00000000)
T307C 001:176.199 - 0.009ms returns 0
T307C 001:176.206 JLINK_WriteReg(R5, 0x00000000)
T307C 001:176.212 - 0.008ms returns 0
T307C 001:176.219 JLINK_WriteReg(R6, 0x00000000)
T307C 001:176.225 - 0.008ms returns 0
T307C 001:176.232 JLINK_WriteReg(R7, 0x00000000)
T307C 001:176.238 - 0.008ms returns 0
T307C 001:176.246 JLINK_WriteReg(R8, 0x00000000)
T307C 001:176.252 - 0.008ms returns 0
T307C 001:176.261 JLINK_WriteReg(R9, 0x200005B4)
T307C 001:176.267 - 0.008ms returns 0
T307C 001:176.275 JLINK_WriteReg(R10, 0x00000000)
T307C 001:176.281 - 0.008ms returns 0
T307C 001:176.290 JLINK_WriteReg(R11, 0x00000000)
T307C 001:176.296 - 0.008ms returns 0
T307C 001:176.305 JLINK_WriteReg(R12, 0x00000000)
T307C 001:176.311 - 0.008ms returns 0
T307C 001:176.319 JLINK_WriteReg(R13 (SP), 0x20002000)
T307C 001:176.326 - 0.009ms returns 0
T307C 001:176.334 JLINK_WriteReg(R14, 0x20000001)
T307C 001:176.340 - 0.009ms returns 0
T307C 001:176.348 JLINK_WriteReg(R15 (PC), 0x20000154)
T307C 001:176.354 - 0.008ms returns 0
T307C 001:176.361 JLINK_WriteReg(XPSR, 0x01000000)
T307C 001:176.367 - 0.008ms returns 0
T307C 001:176.374 JLINK_WriteReg(MSP, 0x20002000)
T307C 001:176.380 - 0.008ms returns 0
T307C 001:176.388 JLINK_WriteReg(PSP, 0x20002000)
T307C 001:176.393 - 0.008ms returns 0
T307C 001:176.402 JLINK_WriteReg(CFBP, 0x00000000)
T307C 001:176.408 - 0.008ms returns 0
T307C 001:176.415 JLINK_SetBPEx(Addr = 0x20000000, Type = 0xFFFFFFF2)
T307C 001:176.423 - 0.010ms returns 0x00000008
T307C 001:176.430 JLINK_Go()
T307C 001:176.444   CPU_ReadMem(4 bytes @ 0xE0001000)
T307C 001:184.870 - 8.456ms
T307C 001:184.924 JLINK_IsHalted()
T307C 001:185.950 - 1.038ms returns FALSE
T307C 001:185.996 JLINK_HasError()
T307C 001:193.135 JLINK_IsHalted()
T307C 001:194.419 - 1.292ms returns FALSE
T307C 001:194.457 JLINK_HasError()
T307C 001:195.571 JLINK_IsHalted()
T307C 001:196.670 - 1.110ms returns FALSE
T307C 001:196.715 JLINK_HasError()
T307C 001:199.573 JLINK_IsHalted()
T307C 001:200.826 - 1.269ms returns FALSE
T307C 001:200.884 JLINK_HasError()
T307C 001:202.439 JLINK_IsHalted()
T307C 001:203.453 - 1.022ms returns FALSE
T307C 001:203.489 JLINK_HasError()
T307C 001:205.459 JLINK_IsHalted()
T307C 001:206.682 - 1.240ms returns FALSE
T307C 001:206.733 JLINK_HasError()
T307C 001:209.542 JLINK_IsHalted()
T307C 001:267.925   CPU_ReadMem(2 bytes @ 0x20000000)
T307C 001:269.185 - 59.660ms returns TRUE
T307C 001:269.238 JLINK_ReadReg(R15 (PC))
T307C 001:269.250 - 0.015ms returns 0x20000000
T307C 001:269.259 JLINK_ClrBPEx(BPHandle = 0x00000008)
T307C 001:269.265 - 0.009ms returns 0x00
T307C 001:269.273 JLINK_ReadReg(R0)
T307C 001:269.279 - 0.009ms returns 0x00000000
T307C 001:270.118 JLINK_WriteMem(0x200005C8, 0x238 Bytes, ...)
T307C 001:270.136   Data:  08 B9 00 98 A0 60 00 20 FF F7 6D FB 14 E0 D4 F8 ...
T307C 001:270.156   CPU_WriteMem(568 bytes @ 0x200005C8)
T307C 001:278.466 - 8.364ms returns 0x238
T307C 001:278.518 JLINK_WriteMem(0x20000800, 0x400 Bytes, ...)
T307C 001:278.527   Data:  D0 F8 00 07 C0 F3 01 48 B8 F1 02 0F 1D D0 02 21 ...
T307C 001:278.546   CPU_WriteMem(1024 bytes @ 0x20000800)
T307C 001:292.605 - 14.104ms returns 0x400
T307C 001:292.656 JLINK_WriteMem(0x20000C00, 0x400 Bytes, ...)
T307C 001:292.665   Data:  FF FF FF FF FF FF FF FF FF FF FF FF FF FF FF FF ...
T307C 001:292.683   CPU_WriteMem(1024 bytes @ 0x20000C00)
T307C 001:306.852 - 14.212ms returns 0x400
T307C 001:306.905 JLINK_WriteMem(0x20001000, 0x400 Bytes, ...)
T307C 001:306.914   Data:  FF FF FF FF FF FF FF FF FF FF FF FF FF FF FF FF ...
T307C 001:306.934   CPU_WriteMem(1024 bytes @ 0x20001000)
T307C 001:321.125 - 14.240ms returns 0x400
T307C 001:321.184 JLINK_WriteMem(0x20001400, 0x1C8 Bytes, ...)
T307C 001:321.193   Data:  FF FF FF FF FF FF FF FF FF FF FF FF FF FF FF FF ...
T307C 001:321.212   CPU_WriteMem(456 bytes @ 0x20001400)
T307C 001:327.940 - 6.772ms returns 0x1C8
T307C 001:327.994 JLINK_HasError()
T307C 001:328.005 JLINK_WriteReg(R0, 0x00001000)
T307C 001:328.017 - 0.014ms returns 0
T307C 001:328.025 JLINK_WriteReg(R1, 0x00000500)
T307C 001:328.032 - 0.009ms returns 0
T307C 001:328.041 JLINK_WriteReg(R2, 0x200005C8)
T307C 001:328.047 - 0.009ms returns 0
T307C 001:328.056 JLINK_WriteReg(R3, 0x00000000)
T307C 001:328.062 - 0.009ms returns 0
T307C 001:328.076 JLINK_WriteReg(R4, 0x00000000)
T307C 001:328.087 - 0.013ms returns 0
T307C 001:328.095 JLINK_WriteReg(R5, 0x00000000)
T307C 001:328.101 - 0.009ms returns 0
T307C 001:328.109 JLINK_WriteReg(R6, 0x00000000)
T307C 001:328.115 - 0.008ms returns 0
T307C 001:328.127 JLINK_WriteReg(R7, 0x00000000)
T307C 001:328.137 - 0.012ms returns 0
T307C 001:328.147 JLINK_WriteReg(R8, 0x00000000)
T307C 001:328.153 - 0.009ms returns 0
T307C 001:328.162 JLINK_WriteReg(R9, 0x200005B4)
T307C 001:328.168 - 0.009ms returns 0
T307C 001:328.175 JLINK_WriteReg(R10, 0x00000000)
T307C 001:328.181 - 0.009ms returns 0
T307C 001:328.188 JLINK_WriteReg(R11, 0x00000000)
T307C 001:328.194 - 0.008ms returns 0
T307C 001:328.202 JLINK_WriteReg(R12, 0x00000000)
T307C 001:328.208 - 0.008ms returns 0
T307C 001:328.215 JLINK_WriteReg(R13 (SP), 0x20002000)
T307C 001:328.222 - 0.009ms returns 0
T307C 001:328.230 JLINK_WriteReg(R14, 0x20000001)
T307C 001:328.236 - 0.009ms returns 0
T307C 001:328.243 JLINK_WriteReg(R15 (PC), 0x20000154)
T307C 001:328.249 - 0.009ms returns 0
T307C 001:328.257 JLINK_WriteReg(XPSR, 0x01000000)
T307C 001:328.263 - 0.008ms returns 0
T307C 001:328.270 JLINK_WriteReg(MSP, 0x20002000)
T307C 001:328.276 - 0.008ms returns 0
T307C 001:328.284 JLINK_WriteReg(PSP, 0x20002000)
T307C 001:328.291 - 0.008ms returns 0
T307C 001:328.298 JLINK_WriteReg(CFBP, 0x00000000)
T307C 001:328.304 - 0.008ms returns 0
T307C 001:328.311 JLINK_SetBPEx(Addr = 0x20000000, Type = 0xFFFFFFF2)
T307C 001:328.319 - 0.010ms returns 0x00000009
T307C 001:328.331 JLINK_Go()
T307C 001:328.345   CPU_ReadMem(4 bytes @ 0xE0001000)
T307C 001:388.945 - 60.629ms
T307C 001:388.995 JLINK_IsHalted()
T307C 001:390.079 - 1.091ms returns FALSE
T307C 001:390.115 JLINK_HasError()
T307C 001:394.268 JLINK_IsHalted()
T307C 001:395.485 - 1.226ms returns FALSE
T307C 001:395.523 JLINK_HasError()
T307C 001:398.411 JLINK_IsHalted()
T307C 001:399.738 - 1.344ms returns FALSE
T307C 001:399.789 JLINK_HasError()
T307C 001:401.483 JLINK_IsHalted()
T307C 001:408.990   CPU_ReadMem(2 bytes @ 0x20000000)
T307C 001:410.038 - 8.566ms returns TRUE
T307C 001:410.083 JLINK_ReadReg(R15 (PC))
T307C 001:410.096 - 0.016ms returns 0x20000000
T307C 001:410.105 JLINK_ClrBPEx(BPHandle = 0x00000009)
T307C 001:410.112 - 0.010ms returns 0x00
T307C 001:410.120 JLINK_ReadReg(R0)
T307C 001:410.126 - 0.009ms returns 0x00000000
T307C 001:410.135 JLINK_HasError()
T307C 001:410.143 JLINK_WriteReg(R0, 0x00000002)
T307C 001:410.150 - 0.010ms returns 0
T307C 001:410.157 JLINK_WriteReg(R1, 0x00000500)
T307C 001:410.163 - 0.009ms returns 0
T307C 001:410.171 JLINK_WriteReg(R2, 0x200005C8)
T307C 001:410.177 - 0.009ms returns 0
T307C 001:410.184 JLINK_WriteReg(R3, 0x00000000)
T307C 001:410.190 - 0.009ms returns 0
T307C 001:410.198 JLINK_WriteReg(R4, 0x00000000)
T307C 001:410.204 - 0.009ms returns 0
T307C 001:410.211 JLINK_WriteReg(R5, 0x00000000)
T307C 001:410.217 - 0.008ms returns 0
T307C 001:410.225 JLINK_WriteReg(R6, 0x00000000)
T307C 001:410.231 - 0.009ms returns 0
T307C 001:410.238 JLINK_WriteReg(R7, 0x00000000)
T307C 001:410.244 - 0.008ms returns 0
T307C 001:410.251 JLINK_WriteReg(R8, 0x00000000)
T307C 001:410.258 - 0.009ms returns 0
T307C 001:410.265 JLINK_WriteReg(R9, 0x200005B4)
T307C 001:410.271 - 0.008ms returns 0
T307C 001:410.279 JLINK_WriteReg(R10, 0x00000000)
T307C 001:410.285 - 0.013ms returns 0
T307C 001:410.300 JLINK_WriteReg(R11, 0x00000000)
T307C 001:410.306 - 0.009ms returns 0
T307C 001:410.314 JLINK_WriteReg(R12, 0x00000000)
T307C 001:410.320 - 0.009ms returns 0
T307C 001:410.327 JLINK_WriteReg(R13 (SP), 0x20002000)
T307C 001:410.334 - 0.009ms returns 0
T307C 001:410.343 JLINK_WriteReg(R14, 0x20000001)
T307C 001:410.349 - 0.009ms returns 0
T307C 001:410.357 JLINK_WriteReg(R15 (PC), 0x20000060)
T307C 001:410.363 - 0.009ms returns 0
T307C 001:410.370 JLINK_WriteReg(XPSR, 0x01000000)
T307C 001:410.377 - 0.009ms returns 0
T307C 001:410.391 JLINK_WriteReg(MSP, 0x20002000)
T307C 001:410.401 - 0.013ms returns 0
T307C 001:410.410 JLINK_WriteReg(PSP, 0x20002000)
T307C 001:410.416 - 0.009ms returns 0
T307C 001:410.424 JLINK_WriteReg(CFBP, 0x00000000)
T307C 001:410.430 - 0.009ms returns 0
T307C 001:410.437 JLINK_SetBPEx(Addr = 0x20000000, Type = 0xFFFFFFF2)
T307C 001:410.452 - 0.018ms returns 0x0000000A
T307C 001:410.460 JLINK_Go()
T307C 001:410.474   CPU_ReadMem(4 bytes @ 0xE0001000)
T307C 001:418.371 - 7.927ms
T307C 001:418.431 JLINK_IsHalted()
T307C 001:425.750   CPU_ReadMem(2 bytes @ 0x20000000)
T307C 001:426.865 - 8.443ms returns TRUE
T307C 001:426.906 JLINK_ReadReg(R15 (PC))
T307C 001:426.917 - 0.014ms returns 0x20000000
T307C 001:426.925 JLINK_ClrBPEx(BPHandle = 0x0000000A)
T307C 001:426.936 - 0.013ms returns 0x00
T307C 001:426.944 JLINK_ReadReg(R0)
T307C 001:426.950 - 0.009ms returns 0x00000000
T307C 001:488.043 JLINK_WriteMem(0x20000000, 0x5B8 Bytes, ...)
T307C 001:488.057   Data:  00 BE 0A E0 0D 78 2D 06 68 40 08 24 40 00 00 D3 ...
T307C 001:488.078   CPU_WriteMem(1464 bytes @ 0x20000000)
T307C 001:519.956 - 31.929ms returns 0x5B8
T307C 001:520.038 JLINK_HasError()
T307C 001:520.053 JLINK_WriteReg(R0, 0x00000000)
T307C 001:520.066 - 0.016ms returns 0
T307C 001:520.074 JLINK_WriteReg(R1, 0x03D09000)
T307C 001:520.081 - 0.009ms returns 0
T307C 001:520.089 JLINK_WriteReg(R2, 0x00000003)
T307C 001:520.095 - 0.009ms returns 0
T307C 001:520.103 JLINK_WriteReg(R3, 0x00000000)
T307C 001:520.109 - 0.009ms returns 0
T307C 001:520.116 JLINK_WriteReg(R4, 0x00000000)
T307C 001:520.122 - 0.009ms returns 0
T307C 001:520.130 JLINK_WriteReg(R5, 0x00000000)
T307C 001:520.136 - 0.009ms returns 0
T307C 001:520.143 JLINK_WriteReg(R6, 0x00000000)
T307C 001:520.149 - 0.009ms returns 0
T307C 001:520.157 JLINK_WriteReg(R7, 0x00000000)
T307C 001:520.163 - 0.009ms returns 0
T307C 001:520.170 JLINK_WriteReg(R8, 0x00000000)
T307C 001:520.176 - 0.009ms returns 0
T307C 001:520.184 JLINK_WriteReg(R9, 0x200005B4)
T307C 001:520.190 - 0.009ms returns 0
T307C 001:520.197 JLINK_WriteReg(R10, 0x00000000)
T307C 001:520.203 - 0.009ms returns 0
T307C 001:520.211 JLINK_WriteReg(R11, 0x00000000)
T307C 001:520.217 - 0.009ms returns 0
T307C 001:520.225 JLINK_WriteReg(R12, 0x00000000)
T307C 001:520.231 - 0.009ms returns 0
T307C 001:520.238 JLINK_WriteReg(R13 (SP), 0x20002000)
T307C 001:520.245 - 0.010ms returns 0
T307C 001:520.253 JLINK_WriteReg(R14, 0x20000001)
T307C 001:520.259 - 0.009ms returns 0
T307C 001:520.266 JLINK_WriteReg(R15 (PC), 0x20000020)
T307C 001:520.272 - 0.009ms returns 0
T307C 001:520.280 JLINK_WriteReg(XPSR, 0x01000000)
T307C 001:520.286 - 0.009ms returns 0
T307C 001:520.293 JLINK_WriteReg(MSP, 0x20002000)
T307C 001:520.299 - 0.009ms returns 0
T307C 001:520.307 JLINK_WriteReg(PSP, 0x20002000)
T307C 001:520.313 - 0.009ms returns 0
T307C 001:520.320 JLINK_WriteReg(CFBP, 0x00000000)
T307C 001:520.326 - 0.009ms returns 0
T307C 001:520.334 JLINK_SetBPEx(Addr = 0x20000000, Type = 0xFFFFFFF2)
T307C 001:520.345   CPU_ReadMem(2 bytes @ 0x20000000)
T307C 001:522.256 - 1.938ms returns 0x0000000B
T307C 001:522.305 JLINK_Go()
T307C 001:522.318   CPU_WriteMem(2 bytes @ 0x20000000)
T307C 001:523.495   CPU_ReadMem(4 bytes @ 0xE0001000)
T307C 001:531.653 - 9.362ms
T307C 001:531.701 JLINK_IsHalted()
T307C 001:538.987   CPU_ReadMem(2 bytes @ 0x20000000)
T307C 001:539.952 - 8.260ms returns TRUE
T307C 001:539.994 JLINK_ReadReg(R15 (PC))
T307C 001:540.014 - 0.027ms returns 0x20000000
T307C 001:540.028 JLINK_ClrBPEx(BPHandle = 0x0000000B)
T307C 001:540.036 - 0.011ms returns 0x00
T307C 001:540.045 JLINK_ReadReg(R0)
T307C 001:540.052 - 0.010ms returns 0x00000000
T307C 001:540.061 JLINK_WriteMem(0x200005C8, 0x238 Bytes, ...)
T307C 001:540.069   Data:  38 26 00 20 FD 02 00 00 05 03 00 00 07 03 00 00 ...
T307C 001:540.085   CPU_WriteMem(568 bytes @ 0x200005C8)
T307C 001:548.271 - 8.228ms returns 0x238
T307C 001:548.332 JLINK_WriteMem(0x20000800, 0x400 Bytes, ...)
T307C 001:548.343   Data:  40 EA 01 05 44 E8 00 53 00 2B F7 D1 15 60 30 BC ...
T307C 001:548.367   CPU_WriteMem(1024 bytes @ 0x20000800)
T307C 001:562.505 - 14.192ms returns 0x400
T307C 001:562.592 JLINK_WriteMem(0x20000C00, 0x400 Bytes, ...)
T307C 001:562.607   Data:  00 20 01 E0 01 C1 12 1F 00 2A FB D1 70 47 00 00 ...
T307C 001:562.635   CPU_WriteMem(1024 bytes @ 0x20000C00)
T307C 001:629.589 - 67.013ms returns 0x400
T307C 001:629.645 JLINK_WriteMem(0x20001000, 0x400 Bytes, ...)
T307C 001:629.654   Data:  01 22 82 40 04 48 80 68 11 B1 C0 F8 08 25 70 47 ...
T307C 001:629.673   CPU_WriteMem(1024 bytes @ 0x20001000)
T307C 001:643.761 - 14.132ms returns 0x400
T307C 001:643.813 JLINK_WriteMem(0x20001400, 0x1C8 Bytes, ...)
T307C 001:643.822   Data:  70 47 00 00 2D E9 FF 47 FF F7 CC FD 18 B1 00 20 ...
T307C 001:643.848   CPU_WriteMem(456 bytes @ 0x20001400)
T307C 001:650.764 - 6.967ms returns 0x1C8
T307C 001:650.817 JLINK_HasError()
T307C 001:650.829 JLINK_WriteReg(R0, 0x00000000)
T307C 001:650.840 - 0.014ms returns 0
T307C 001:650.848 JLINK_WriteReg(R1, 0x00001000)
T307C 001:650.854 - 0.009ms returns 0
T307C 001:650.861 JLINK_WriteReg(R2, 0x200005C8)
T307C 001:650.867 - 0.008ms returns 0
T307C 001:650.876 JLINK_WriteReg(R3, 0x00000000)
T307C 001:650.882 - 0.009ms returns 0
T307C 001:650.889 JLINK_WriteReg(R4, 0x00000000)
T307C 001:650.895 - 0.008ms returns 0
T307C 001:650.903 JLINK_WriteReg(R5, 0x00000000)
T307C 001:650.909 - 0.008ms returns 0
T307C 001:650.916 JLINK_WriteReg(R6, 0x00000000)
T307C 001:650.922 - 0.008ms returns 0
T307C 001:650.931 JLINK_WriteReg(R7, 0x00000000)
T307C 001:650.937 - 0.008ms returns 0
T307C 001:650.946 JLINK_WriteReg(R8, 0x00000000)
T307C 001:650.952 - 0.009ms returns 0
T307C 001:650.960 JLINK_WriteReg(R9, 0x200005B4)
T307C 001:650.966 - 0.009ms returns 0
T307C 001:650.975 JLINK_WriteReg(R10, 0x00000000)
T307C 001:650.981 - 0.008ms returns 0
T307C 001:650.988 JLINK_WriteReg(R11, 0x00000000)
T307C 001:650.994 - 0.008ms returns 0
T307C 001:651.002 JLINK_WriteReg(R12, 0x00000000)
T307C 001:651.007 - 0.008ms returns 0
T307C 001:651.015 JLINK_WriteReg(R13 (SP), 0x20002000)
T307C 001:651.021 - 0.009ms returns 0
T307C 001:651.029 JLINK_WriteReg(R14, 0x20000001)
T307C 001:651.035 - 0.009ms returns 0
T307C 001:651.043 JLINK_WriteReg(R15 (PC), 0x20000348)
T307C 001:651.049 - 0.009ms returns 0
T307C 001:651.057 JLINK_WriteReg(XPSR, 0x01000000)
T307C 001:651.063 - 0.008ms returns 0
T307C 001:651.070 JLINK_WriteReg(MSP, 0x20002000)
T307C 001:651.076 - 0.008ms returns 0
T307C 001:651.083 JLINK_WriteReg(PSP, 0x20002000)
T307C 001:651.089 - 0.008ms returns 0
T307C 001:651.097 JLINK_WriteReg(CFBP, 0x00000000)
T307C 001:651.103 - 0.009ms returns 0
T307C 001:651.112 JLINK_SetBPEx(Addr = 0x20000000, Type = 0xFFFFFFF2)
T307C 001:651.119 - 0.010ms returns 0x0000000C
T307C 001:651.128 JLINK_Go()
T307C 001:651.142   CPU_ReadMem(4 bytes @ 0xE0001000)
T307C 001:659.437 - 8.322ms
T307C 001:659.481 JLINK_IsHalted()
T307C 001:667.050   CPU_ReadMem(2 bytes @ 0x20000000)
T307C 001:668.210 - 8.745ms returns TRUE
T307C 001:668.269 JLINK_ReadReg(R15 (PC))
T307C 001:668.285 - 0.019ms returns 0x20000000
T307C 001:668.295 JLINK_ClrBPEx(BPHandle = 0x0000000C)
T307C 001:668.309 - 0.017ms returns 0x00
T307C 001:668.324 JLINK_ReadReg(R0)
T307C 001:668.333 - 0.012ms returns 0x00001000
T307C 001:669.293 JLINK_WriteMem(0x200005C8, 0x238 Bytes, ...)
T307C 001:669.314   Data:  08 B9 00 98 A0 60 00 20 FF F7 6D FB 14 E0 D4 F8 ...
T307C 001:669.337   CPU_WriteMem(568 bytes @ 0x200005C8)
T307C 001:677.629 - 8.354ms returns 0x238
T307C 001:677.692 JLINK_WriteMem(0x20000800, 0x400 Bytes, ...)
T307C 001:677.705   Data:  D0 F8 00 07 C0 F3 01 48 B8 F1 02 0F 1D D0 02 21 ...
T307C 001:677.731   CPU_WriteMem(1024 bytes @ 0x20000800)
T307C 001:691.809 - 14.141ms returns 0x400
T307C 001:691.892 JLINK_WriteMem(0x20000C00, 0x400 Bytes, ...)
T307C 001:691.908   Data:  00 00 00 00 00 00 00 00 00 00 00 00 00 00 00 00 ...
T307C 001:691.940   CPU_WriteMem(1024 bytes @ 0x20000C00)
T307C 001:759.318 - 67.443ms returns 0x400
T307C 001:759.372 JLINK_WriteMem(0x20001000, 0x400 Bytes, ...)
T307C 001:759.381   Data:  00 00 00 00 00 00 00 00 00 00 00 00 00 00 00 00 ...
T307C 001:759.400   CPU_WriteMem(1024 bytes @ 0x20001000)
T307C 001:773.549 - 14.193ms returns 0x400
T307C 001:773.602 JLINK_WriteMem(0x20001400, 0x1C8 Bytes, ...)
T307C 001:773.610   Data:  00 00 00 00 00 00 00 00 00 00 00 00 00 00 00 00 ...
T307C 001:773.629   CPU_WriteMem(456 bytes @ 0x20001400)
T307C 001:780.513 - 6.927ms returns 0x1C8
T307C 001:780.566 JLINK_HasError()
T307C 001:780.578 JLINK_WriteReg(R0, 0x00001000)
T307C 001:780.589 - 0.014ms returns 0
T307C 001:780.597 JLINK_WriteReg(R1, 0x00000500)
T307C 001:780.604 - 0.009ms returns 0
T307C 001:780.612 JLINK_WriteReg(R2, 0x200005C8)
T307C 001:780.618 - 0.009ms returns 0
T307C 001:780.625 JLINK_WriteReg(R3, 0x00000000)
T307C 001:780.632 - 0.009ms returns 0
T307C 001:780.640 JLINK_WriteReg(R4, 0x00000000)
T307C 001:780.646 - 0.010ms returns 0
T307C 001:780.655 JLINK_WriteReg(R5, 0x00000000)
T307C 001:780.661 - 0.009ms returns 0
T307C 001:780.669 JLINK_WriteReg(R6, 0x00000000)
T307C 001:780.675 - 0.009ms returns 0
T307C 001:780.682 JLINK_WriteReg(R7, 0x00000000)
T307C 001:780.688 - 0.008ms returns 0
T307C 001:780.696 JLINK_WriteReg(R8, 0x00000000)
T307C 001:780.702 - 0.009ms returns 0
